
T1F08 000:645 SEGGER J-Link V4.90 Log File (0002ms, 0272ms total)
T1F08 000:645 DLL Compiled: Jul 28 2014 10:35:20 (0002ms, 0272ms total)
T1F08 000:645 Logging started @ 2015-09-24 08:33 (0002ms, 0272ms total)
T1F08 000:647 JLINK_SetWarnOutHandler(...) (0000ms, 0272ms total)
T1F08 000:647 JLINK_OpenEx(...)
Firmware: J-Link ARM V8 compiled Jul 17 2014 12:31:18
Hardware: V8.00
S/N: 308621590
Feature(s): RDI,FlashDL,FlashBP,JFlash,GDBFULL  returns O.K. (0269ms, 0541ms total)
T1F08 000:916 JLINK_SetErrorOutHandler(...) (0000ms, 0541ms total)
T1F08 000:916 JLINK_ExecCommand("ProjectFile = "F:\Car\Moto\Project\RVMDK£¨uv4£©\JLinkSettings.ini"", ...)  returns 0x00 (0001ms, 0542ms total)
T1F08 000:927 JLINK_ExecCommand("Device = STM32F103VE", ...)Device "STM32F103VE" selected (512 KB flash, 64 KB RAM).  returns 0x00 (0030ms, 0572ms total)
T1F08 000:957 JLINK_ExecCommand("DisableConnectionTimeout", ...)  returns 0x01 (0000ms, 0572ms total)
T1F08 000:957 JLINK_GetHardwareVersion()  returns 0x13880 (0000ms, 0572ms total)
T1F08 000:957 JLINK_GetDLLVersion()  returns 49000 (0000ms, 0572ms total)
T1F08 000:957 JLINK_GetFirmwareString(...) (0001ms, 0573ms total)
T1F08 001:006 JLINK_GetDLLVersion()  returns 49000 (0000ms, 0573ms total)
T1F08 001:007 JLINK_GetCompileDateTime() (0000ms, 0574ms total)
T1F08 001:017 JLINK_GetFirmwareString(...) (0000ms, 0574ms total)
T1F08 001:024 JLINK_GetHardwareVersion()  returns 0x13880 (0000ms, 0574ms total)
T1F08 001:034 JLINK_TIF_Select(JLINKARM_TIF_JTAG)  returns 0x00 (0002ms, 0576ms total)
T1F08 001:036 JLINK_SetSpeed(2000) (0001ms, 0577ms total)
T1F08 001:037 JLINK_GetIdData(...) >0x2F8 JTAG>TotalIRLen = 9, IRPrint = 0x0011 >0x30 JTAG> >0x210 JTAG> >0x40 JTAG> >0x40 JTAG> >0x40 JTAG> >0x30 JTAG> >0x40 JTAG> >0x40 JTAG> >0x40 JTAG> >0x40 JTAG> >0x40 JTAG> >0x40 JTAG> >0x40 JTAG> >0x40 JTAG> >0x2F8 JTAG>TotalIRLen = 9, IRPrint = 0x0011 >0x30 JTAG> >0x210 JTAG> >0x70 JTAG> >0x40 JTAG> >0x40 JTAG> >0x40 JTAG> >0x50 JTAG> >0x80 JTAG> >0x40 JTAG> >0x30 JTAG> >0x40 JTAG> >0x40 JTAG> >0x30 JTAG> >0x40 JTAG> >0x50 JTAG>
Found Cortex-M3 r1p1, Little endian. -- CPU_WriteMem(4 bytes @ 0xE0002000) -- CPU_ReadMem(4 bytes @ 0xE000EDF0) -- CPU_ReadMem(4 bytes @ 0xE0002000)FPUnit: 6 code (BP) slots and 2 literal slots -- CPU_ReadMem(4 bytes @ 0xE000EDFC) -- CPU_ReadMem(4 bytes @ 0xE0001000) -- CPU_WriteMem(4 bytes @ 0xE0001000) -- CPU_ReadMem(4 bytes @ 0xE00FF010)TPIU fitted. -- CPU_ReadMem(4 bytes @ 0xE00FF014)ETM fitted. -- CPU_ReadMem(4 bytes @ 0xE00FF018) ScanLen=9 NumDevices=2 aId[0]=0x3BA00477 aIrRead[0]=0 aScanLen[0]=0
 aScanRead[0]=0 (0048ms, 0625ms total)
T1F08 001:085 JLINK_JTAG_GetDeviceID(DeviceIndex = 0)  returns 0x3BA00477 (0000ms, 0625ms total)
T1F08 001:085 JLINK_JTAG_GetDeviceInfo(DeviceIndex = 0)  returns 0x00 (0000ms, 0625ms total)
T1F08 001:085 JLINK_JTAG_GetDeviceID(DeviceIndex = 1)  returns 0x6414041 (0000ms, 0625ms total)
T1F08 001:085 JLINK_JTAG_GetDeviceInfo(DeviceIndex = 1)  returns 0x00 (0000ms, 0625ms total)
T1F08 001:085 JLINK_GetDeviceFamily()  returns 3 (0000ms, 0625ms total)
T1F08 001:088 JLINK_ReadMem (0xE00FFFF0, 0x0010 Bytes, ...) -- CPU is running -- CPU_ReadMem(16 bytes @ 0xE00FFFF0) - Data: 0D 00 00 00 10 00 00 00 05 00 00 00 B1 00 00 00  returns 0x00 (0001ms, 0626ms total)
T1F08 001:089 JLINK_ReadMem (0xE00FFFD0, 0x0020 Bytes, ...) -- CPU is running -- CPU_ReadMem(32 bytes @ 0xE00FFFD0) - Data: 00 00 00 00 00 00 00 00 00 00 00 00 00 00 00 00 ...  returns 0x00 (0001ms, 0627ms total)
T1F08 001:090 JLINK_ReadMem (0xE00FF000, 0x0018 Bytes, ...) -- CPU is running -- CPU_ReadMem(24 bytes @ 0xE00FF000) - Data: 03 F0 F0 FF 03 20 F0 FF 03 30 F0 FF 03 10 F0 FF ...  returns 0x00 (0001ms, 0628ms total)
T1F08 001:091 JLINK_ReadMemU32(0xE000ED00, 0x0001 Items, ...) -- CPU is running -- CPU_ReadMem(4 bytes @ 0xE000ED00) - Data: 31 C2 1F 41  returns 0x01 (0001ms, 0629ms total)
T1F08 001:092 JLINK_SetResetType(JLINKARM_RESET_TYPE_NORMAL)  returns JLINKARM_RESET_TYPE_NORMAL (0000ms, 0629ms total)
T1F08 001:092 JLINK_Reset() -- CPU is running -- CPU_WriteMem(4 bytes @ 0xE000EDF0) -- CPU is running -- CPU_WriteMem(4 bytes @ 0xE000EDFC) -- CPU is running -- CPU_WriteMem(4 bytes @ 0xE000ED0C) -- CPU is running -- CPU_ReadMem(4 bytes @ 0xE000EDF0) -- CPU is running -- CPU_ReadMem(4 bytes @ 0xE000EDF0) -- CPU is running -- CPU_WriteMem(4 bytes @ 0xE000EDF0) -- CPU is running -- CPU_WriteMem(4 bytes @ 0xE000EDFC) -- CPU is running -- CPU_ReadMem(4 bytes @ 0xE000EDF0) >0x80 JTAG> >0x40 JTAG> >0x30 JTAG>
 >0x40 JTAG> >0x50 JTAG> >0x40 JTAG> -- CPU_WriteMem(4 bytes @ 0xE000EDFC) -- CPU_WriteMem(4 bytes @ 0xE0001028) -- CPU_WriteMem(4 bytes @ 0xE0001038) -- CPU_WriteMem(4 bytes @ 0xE0001048) -- CPU_WriteMem(4 bytes @ 0xE0001058) -- CPU_WriteMem(4 bytes @ 0xE0002000) -- CPU_ReadMem(4 bytes @ 0xE000EDFC) -- CPU_ReadMem(4 bytes @ 0xE0001000) (0033ms, 0662ms total)
T1F08 001:125 JLINK_Halt()  returns 0x00 (0000ms, 0662ms total)
T1F08 001:125 JLINK_IsHalted()  returns TRUE (0000ms, 0662ms total)
T1F08 001:125 JLINK_ReadMemU32(0xE000EDF0, 0x0001 Items, ...) -- CPU_ReadMem(4 bytes @ 0xE000EDF0) - Data: 03 00 03 00  returns 0x01 (0001ms, 0663ms total)
T1F08 001:126 JLINK_WriteU32(0xE000EDF0, 0xA05F0003) -- CPU_WriteMem(4 bytes @ 0xE000EDF0)  returns 0x00 (0001ms, 0664ms total)
T1F08 001:127 JLINK_WriteU32(0xE000EDFC, 0x01000000) -- CPU_WriteMem(4 bytes @ 0xE000EDFC)  returns 0x00 (0000ms, 0664ms total)
T1F08 001:138 JLINK_GetHWStatus(...)  returns 0x00 (0001ms, 0665ms total)
T1F08 001:151 JLINK_GetNumBPUnits(Type = 0xFFFFFF00)  returns 0x06 (0000ms, 0665ms total)
T1F08 001:151 JLINK_GetNumBPUnits(Type = 0xF0)  returns 0x2000 (0000ms, 0665ms total)
T1F08 001:151 JLINK_GetNumWPUnits()  returns 0x04 (0000ms, 0665ms total)
T1F08 001:156 JLINK_GetSpeed()  returns 0x7D0 (0000ms, 0665ms total)
T1F08 001:159 JLINK_ReadMemU32(0xE000E004, 0x0001 Items, ...) -- CPU_ReadMem(4 bytes @ 0xE000E004) - Data: 01 00 00 00  returns 0x01 (0001ms, 0666ms total)
T1F08 001:160 JLINK_ReadMemU32(0xE000E004, 0x0001 Items, ...) -- CPU_ReadMem(4 bytes @ 0xE000E004) - Data: 01 00 00 00  returns 0x01 (0001ms, 0667ms total)
T1F08 001:161 JLINK_WriteMem(0xE0001000, 0x001C Bytes, ...) - Data: 01 00 00 00 00 00 00 00 00 00 00 00 00 00 00 00 ... -- CPU_WriteMem(28 bytes @ 0xE0001000)  returns 0x1C (0001ms, 0668ms total)
T1F08 001:162 JLINK_ReadMem (0xE0001000, 0x001C Bytes, ...) -- CPU_ReadMem(28 bytes @ 0xE0001000) - Data: 01 00 00 40 00 00 00 00 00 00 00 00 00 00 00 00 ...  returns 0x00 (0001ms, 0669ms total)
T1F08 001:163 JLINK_Halt()  returns 0x00 (0000ms, 0669ms total)
T1F08 001:163 JLINK_IsHalted()  returns TRUE (0000ms, 0669ms total)
T1F08 001:165 JLINK_WriteMem(0x20000000, 0x0164 Bytes, ...) - Data: 00 BE 0A E0 0D 78 2D 06 68 40 08 24 40 00 00 D3 ... -- CPU_WriteMem(356 bytes @ 0x20000000)  returns 0x164 (0003ms, 0672ms total)
T1F08 001:168 JLINK_WriteReg(R0, 0x08000000)  returns 0x00 (0000ms, 0672ms total)
T1F08 001:168 JLINK_WriteReg(R1, 0x007A1200)  returns 0x00 (0000ms, 0672ms total)
T1F08 001:168 JLINK_WriteReg(R2, 0x00000001)  returns 0x00 (0000ms, 0672ms total)
T1F08 001:168 JLINK_WriteReg(R3, 0x00000000)  returns 0x00 (0000ms, 0672ms total)
T1F08 001:168 JLINK_WriteReg(R4, 0x00000000)  returns 0x00 (0000ms, 0672ms total)
T1F08 001:168 JLINK_WriteReg(R5, 0x00000000)  returns 0x00 (0000ms, 0672ms total)
T1F08 001:169 JLINK_WriteReg(R6, 0x00000000)  returns 0x00 (0000ms, 0673ms total)
T1F08 001:169 JLINK_WriteReg(R7, 0x00000000)  returns 0x00 (0000ms, 0673ms total)
T1F08 001:169 JLINK_WriteReg(R8, 0x00000000)  returns 0x00 (0000ms, 0673ms total)
T1F08 001:169 JLINK_WriteReg(R9, 0x20000160)  returns 0x00 (0000ms, 0673ms total)
T1F08 001:169 JLINK_WriteReg(R10, 0x00000000)  returns 0x00 (0000ms, 0673ms total)
T1F08 001:169 JLINK_WriteReg(R11, 0x00000000)  returns 0x00 (0000ms, 0673ms total)
T1F08 001:169 JLINK_WriteReg(R12, 0x00000000)  returns 0x00 (0000ms, 0673ms total)
T1F08 001:169 JLINK_WriteReg(R13 (SP), 0x20000800)  returns 0x00 (0000ms, 0673ms total)
T1F08 001:169 JLINK_WriteReg(R14, 0x20000001)  returns 0x00 (0000ms, 0673ms total)
T1F08 001:169 JLINK_WriteReg(R15 (PC), 0x20000038)  returns 0x00 (0000ms, 0673ms total)
T1F08 001:169 JLINK_WriteReg(XPSR, 0x01000000)  returns 0x00 (0000ms, 0673ms total)
T1F08 001:169 JLINK_WriteReg(MSP, 0x20000800)  returns 0x00 (0000ms, 0673ms total)
T1F08 001:169 JLINK_WriteReg(PSP, 0x20000800)  returns 0x00 (0000ms, 0673ms total)
T1F08 001:169 JLINK_WriteReg(CFBP, 0x00000000)  returns 0x00 (0000ms, 0673ms total)
T1F08 001:169 JLINK_SetBPEx(Addr = 0x20000000, Type = 0xFFFFFFF2) -- CPU_ReadMem(2 bytes @ 0x20000000)  returns 0x00000001 (0001ms, 0674ms total)
T1F08 001:170 JLINK_Go() -- CPU_WriteMem(2 bytes @ 0x20000000) -- CPU_WriteMem(4 bytes @ 0xE0002008) -- CPU_WriteMem(4 bytes @ 0xE000200C) -- CPU_WriteMem(4 bytes @ 0xE0002010) -- CPU_WriteMem(4 bytes @ 0xE0002014) -- CPU_WriteMem(4 bytes @ 0xE0002018) -- CPU_WriteMem(4 bytes @ 0xE000201C) -- CPU_WriteMem(4 bytes @ 0xE0001004) (0007ms, 0681ms total)
T1F08 001:177 JLINK_IsHalted() -- CPU_ReadMem(2 bytes @ 0x20000000)  returns TRUE (0006ms, 0687ms total)
T1F08 001:183 JLINK_ReadReg(R15 (PC))  returns 0x20000000 (0000ms, 0681ms total)
T1F08 001:183 JLINK_ClrBPEx(BPHandle = 0x00000001)  returns 0x00 (0000ms, 0681ms total)
T1F08 001:183 JLINK_ReadReg(R0)  returns 0x00000000 (0000ms, 0681ms total)
T1F08 001:184 JLINK_WriteReg(R0, 0x08000000)  returns 0x00 (0000ms, 0681ms total)
T1F08 001:184 JLINK_WriteReg(R1, 0x007A1200)  returns 0x00 (0000ms, 0681ms total)
T1F08 001:184 JLINK_WriteReg(R2, 0x00000001)  returns 0x00 (0000ms, 0681ms total)
T1F08 001:184 JLINK_WriteReg(R3, 0x00000000)  returns 0x00 (0000ms, 0681ms total)
T1F08 001:184 JLINK_WriteReg(R4, 0x00000000)  returns 0x00 (0000ms, 0681ms total)
T1F08 001:184 JLINK_WriteReg(R5, 0x00000000)  returns 0x00 (0000ms, 0681ms total)
T1F08 001:184 JLINK_WriteReg(R6, 0x00000000)  returns 0x00 (0000ms, 0681ms total)
T1F08 001:184 JLINK_WriteReg(R7, 0x00000000)  returns 0x00 (0000ms, 0681ms total)
T1F08 001:184 JLINK_WriteReg(R8, 0x00000000)  returns 0x00 (0000ms, 0681ms total)
T1F08 001:184 JLINK_WriteReg(R9, 0x20000160)  returns 0x00 (0000ms, 0681ms total)
T1F08 001:184 JLINK_WriteReg(R10, 0x00000000)  returns 0x00 (0000ms, 0681ms total)
T1F08 001:184 JLINK_WriteReg(R11, 0x00000000)  returns 0x00 (0000ms, 0681ms total)
T1F08 001:184 JLINK_WriteReg(R12, 0x00000000)  returns 0x00 (0000ms, 0681ms total)
T1F08 001:184 JLINK_WriteReg(R13 (SP), 0x20000800)  returns 0x00 (0000ms, 0681ms total)
T1F08 001:184 JLINK_WriteReg(R14, 0x20000001)  returns 0x00 (0000ms, 0681ms total)
T1F08 001:184 JLINK_WriteReg(R15 (PC), 0x2000007C)  returns 0x00 (0000ms, 0681ms total)
T1F08 001:184 JLINK_WriteReg(XPSR, 0x01000000)  returns 0x00 (0000ms, 0681ms total)
T1F08 001:184 JLINK_WriteReg(MSP, 0x20000800)  returns 0x00 (0000ms, 0681ms total)
T1F08 001:184 JLINK_WriteReg(PSP, 0x20000800)  returns 0x00 (0000ms, 0681ms total)
T1F08 001:184 JLINK_WriteReg(CFBP, 0x00000000)  returns 0x00 (0000ms, 0681ms total)
T1F08 001:184 JLINK_SetBPEx(Addr = 0x20000000, Type = 0xFFFFFFF2)  returns 0x00000002 (0000ms, 0681ms total)
T1F08 001:184 JLINK_Go() (0002ms, 0683ms total)
T1F08 001:186 JLINK_IsHalted()  returns FALSE (0001ms, 0684ms total)
T1F08 001:286 JLINK_IsHalted() -- CPU_ReadMem(2 bytes @ 0x20000000)  returns TRUE (0005ms, 0688ms total)
T1F08 001:291 JLINK_ReadReg(R15 (PC))  returns 0x20000000 (0000ms, 0683ms total)
T1F08 001:291 JLINK_ClrBPEx(BPHandle = 0x00000002)  returns 0x00 (0000ms, 0683ms total)
T1F08 001:291 JLINK_ReadReg(R0)  returns 0x00000000 (0000ms, 0683ms total)
T1F08 001:343 JLINK_WriteReg(R0, 0x00000001)  returns 0x00 (0000ms, 0683ms total)
T1F08 001:343 JLINK_WriteReg(R1, 0x007A1200)  returns 0x00 (0000ms, 0683ms total)
T1F08 001:343 JLINK_WriteReg(R2, 0x00000001)  returns 0x00 (0000ms, 0683ms total)
T1F08 001:343 JLINK_WriteReg(R3, 0x00000000)  returns 0x00 (0000ms, 0683ms total)
T1F08 001:343 JLINK_WriteReg(R4, 0x00000000)  returns 0x00 (0000ms, 0683ms total)
T1F08 001:343 JLINK_WriteReg(R5, 0x00000000)  returns 0x00 (0000ms, 0683ms total)
T1F08 001:343 JLINK_WriteReg(R6, 0x00000000)  returns 0x00 (0000ms, 0683ms total)
T1F08 001:343 JLINK_WriteReg(R7, 0x00000000)  returns 0x00 (0000ms, 0683ms total)
T1F08 001:343 JLINK_WriteReg(R8, 0x00000000)  returns 0x00 (0000ms, 0683ms total)
T1F08 001:343 JLINK_WriteReg(R9, 0x20000160)  returns 0x00 (0000ms, 0683ms total)
T1F08 001:343 JLINK_WriteReg(R10, 0x00000000)  returns 0x00 (0000ms, 0683ms total)
T1F08 001:343 JLINK_WriteReg(R11, 0x00000000)  returns 0x00 (0000ms, 0683ms total)
T1F08 001:343 JLINK_WriteReg(R12, 0x00000000)  returns 0x00 (0000ms, 0683ms total)
T1F08 001:343 JLINK_WriteReg(R13 (SP), 0x20000800)  returns 0x00 (0000ms, 0683ms total)
T1F08 001:343 JLINK_WriteReg(R14, 0x20000001)  returns 0x00 (0000ms, 0683ms total)
T1F08 001:343 JLINK_WriteReg(R15 (PC), 0x2000006A)  returns 0x00 (0000ms, 0683ms total)
T1F08 001:343 JLINK_WriteReg(XPSR, 0x01000000)  returns 0x00 (0000ms, 0683ms total)
T1F08 001:343 JLINK_WriteReg(MSP, 0x20000800)  returns 0x00 (0000ms, 0683ms total)
T1F08 001:343 JLINK_WriteReg(PSP, 0x20000800)  returns 0x00 (0000ms, 0683ms total)
T1F08 001:343 JLINK_WriteReg(CFBP, 0x00000000)  returns 0x00 (0000ms, 0683ms total)
T1F08 001:343 JLINK_SetBPEx(Addr = 0x20000000, Type = 0xFFFFFFF2)  returns 0x00000003 (0000ms, 0683ms total)
T1F08 001:343 JLINK_Go() (0002ms, 0685ms total)
T1F08 001:345 JLINK_IsHalted() -- CPU_ReadMem(2 bytes @ 0x20000000)  returns TRUE (0006ms, 0691ms total)
T1F08 001:351 JLINK_ReadReg(R15 (PC))  returns 0x20000000 (0000ms, 0685ms total)
T1F08 001:351 JLINK_ClrBPEx(BPHandle = 0x00000003)  returns 0x00 (0000ms, 0685ms total)
T1F08 001:351 JLINK_ReadReg(R0)  returns 0x00000000 (0000ms, 0685ms total)
T1F08 001:355 JLINK_WriteMem(0x20000000, 0x0164 Bytes, ...) - Data: 00 BE 0A E0 0D 78 2D 06 68 40 08 24 40 00 00 D3 ... -- CPU_WriteMem(356 bytes @ 0x20000000)  returns 0x164 (0003ms, 0688ms total)
T1F08 001:358 JLINK_WriteReg(R0, 0x08000000)  returns 0x00 (0000ms, 0688ms total)
T1F08 001:358 JLINK_WriteReg(R1, 0x007A1200)  returns 0x00 (0000ms, 0688ms total)
T1F08 001:358 JLINK_WriteReg(R2, 0x00000002)  returns 0x00 (0000ms, 0688ms total)
T1F08 001:358 JLINK_WriteReg(R3, 0x00000000)  returns 0x00 (0000ms, 0688ms total)
T1F08 001:358 JLINK_WriteReg(R4, 0x00000000)  returns 0x00 (0000ms, 0688ms total)
T1F08 001:358 JLINK_WriteReg(R5, 0x00000000)  returns 0x00 (0000ms, 0688ms total)
T1F08 001:358 JLINK_WriteReg(R6, 0x00000000)  returns 0x00 (0000ms, 0688ms total)
T1F08 001:358 JLINK_WriteReg(R7, 0x00000000)  returns 0x00 (0000ms, 0688ms total)
T1F08 001:358 JLINK_WriteReg(R8, 0x00000000)  returns 0x00 (0000ms, 0688ms total)
T1F08 001:358 JLINK_WriteReg(R9, 0x20000160)  returns 0x00 (0000ms, 0688ms total)
T1F08 001:358 JLINK_WriteReg(R10, 0x00000000)  returns 0x00 (0000ms, 0688ms total)
T1F08 001:358 JLINK_WriteReg(R11, 0x00000000)  returns 0x00 (0000ms, 0688ms total)
T1F08 001:358 JLINK_WriteReg(R12, 0x00000000)  returns 0x00 (0000ms, 0688ms total)
T1F08 001:358 JLINK_WriteReg(R13 (SP), 0x20000800)  returns 0x00 (0000ms, 0688ms total)
T1F08 001:358 JLINK_WriteReg(R14, 0x20000001)  returns 0x00 (0000ms, 0688ms total)
T1F08 001:358 JLINK_WriteReg(R15 (PC), 0x20000038)  returns 0x00 (0000ms, 0688ms total)
T1F08 001:358 JLINK_WriteReg(XPSR, 0x01000000)  returns 0x00 (0000ms, 0688ms total)
T1F08 001:358 JLINK_WriteReg(MSP, 0x20000800)  returns 0x00 (0000ms, 0688ms total)
T1F08 001:358 JLINK_WriteReg(PSP, 0x20000800)  returns 0x00 (0000ms, 0688ms total)
T1F08 001:358 JLINK_WriteReg(CFBP, 0x00000000)  returns 0x00 (0000ms, 0688ms total)
T1F08 001:358 JLINK_SetBPEx(Addr = 0x20000000, Type = 0xFFFFFFF2) -- CPU_ReadMem(2 bytes @ 0x20000000)  returns 0x00000004 (0001ms, 0689ms total)
T1F08 001:359 JLINK_Go() -- CPU_WriteMem(2 bytes @ 0x20000000) (0002ms, 0691ms total)
T1F08 001:361 JLINK_IsHalted() -- CPU_ReadMem(2 bytes @ 0x20000000)  returns TRUE (0006ms, 0697ms total)
T1F08 001:367 JLINK_ReadReg(R15 (PC))  returns 0x20000000 (0000ms, 0691ms total)
T1F08 001:367 JLINK_ClrBPEx(BPHandle = 0x00000004)  returns 0x00 (0000ms, 0691ms total)
T1F08 001:367 JLINK_ReadReg(R0)  returns 0x00000000 (0000ms, 0691ms total)
T1F08 001:368 JLINK_WriteMem(0x20000164, 0x0400 Bytes, ...) - Data: 30 04 00 20 45 01 00 08 1F 1E 00 08 21 1E 00 08 ... -- CPU_WriteMem(1024 bytes @ 0x20000164)  returns 0x400 (0007ms, 0698ms total)
T1F08 001:375 JLINK_WriteReg(R0, 0x08000000)  returns 0x00 (0000ms, 0698ms total)
T1F08 001:375 JLINK_WriteReg(R1, 0x00000400)  returns 0x00 (0000ms, 0698ms total)
T1F08 001:375 JLINK_WriteReg(R2, 0x20000164)  returns 0x00 (0000ms, 0698ms total)
T1F08 001:375 JLINK_WriteReg(R3, 0x00000000)  returns 0x00 (0000ms, 0698ms total)
T1F08 001:375 JLINK_WriteReg(R4, 0x00000000)  returns 0x00 (0000ms, 0698ms total)
T1F08 001:375 JLINK_WriteReg(R5, 0x00000000)  returns 0x00 (0000ms, 0698ms total)
T1F08 001:375 JLINK_WriteReg(R6, 0x00000000)  returns 0x00 (0000ms, 0698ms total)
T1F08 001:375 JLINK_WriteReg(R7, 0x00000000)  returns 0x00 (0000ms, 0698ms total)
T1F08 001:375 JLINK_WriteReg(R8, 0x00000000)  returns 0x00 (0000ms, 0698ms total)
T1F08 001:375 JLINK_WriteReg(R9, 0x20000160)  returns 0x00 (0000ms, 0698ms total)
T1F08 001:375 JLINK_WriteReg(R10, 0x00000000)  returns 0x00 (0000ms, 0698ms total)
T1F08 001:375 JLINK_WriteReg(R11, 0x00000000)  returns 0x00 (0000ms, 0698ms total)
T1F08 001:375 JLINK_WriteReg(R12, 0x00000000)  returns 0x00 (0000ms, 0698ms total)
T1F08 001:375 JLINK_WriteReg(R13 (SP), 0x20000800)  returns 0x00 (0000ms, 0698ms total)
T1F08 001:375 JLINK_WriteReg(R14, 0x20000001)  returns 0x00 (0000ms, 0698ms total)
T1F08 001:375 JLINK_WriteReg(R15 (PC), 0x200000F4)  returns 0x00 (0000ms, 0698ms total)
T1F08 001:375 JLINK_WriteReg(XPSR, 0x01000000)  returns 0x00 (0000ms, 0698ms total)
T1F08 001:375 JLINK_WriteReg(MSP, 0x20000800)  returns 0x00 (0000ms, 0698ms total)
T1F08 001:375 JLINK_WriteReg(PSP, 0x20000800)  returns 0x00 (0000ms, 0698ms total)
T1F08 001:375 JLINK_WriteReg(CFBP, 0x00000000)  returns 0x00 (0000ms, 0698ms total)
T1F08 001:375 JLINK_SetBPEx(Addr = 0x20000000, Type = 0xFFFFFFF2)  returns 0x00000005 (0000ms, 0698ms total)
T1F08 001:375 JLINK_Go() (0002ms, 0700ms total)
T1F08 001:377 JLINK_IsHalted()  returns FALSE (0001ms, 0701ms total)
T1F08 001:413 JLINK_IsHalted() -- CPU_ReadMem(2 bytes @ 0x20000000)  returns TRUE (0006ms, 0706ms total)
T1F08 001:419 JLINK_ReadReg(R15 (PC))  returns 0x20000000 (0000ms, 0700ms total)
T1F08 001:419 JLINK_ClrBPEx(BPHandle = 0x00000005)  returns 0x00 (0000ms, 0700ms total)
T1F08 001:419 JLINK_ReadReg(R0)  returns 0x00000000 (0000ms, 0700ms total)
T1F08 001:419 JLINK_WriteMem(0x20000164, 0x0400 Bytes, ...) - Data: D1 FA 10 BD 2D E9 F0 41 02 46 00 25 00 26 00 20 ... -- CPU_WriteMem(1024 bytes @ 0x20000164)  returns 0x400 (0007ms, 0707ms total)
T1F08 001:426 JLINK_WriteReg(R0, 0x08000400)  returns 0x00 (0000ms, 0707ms total)
T1F08 001:426 JLINK_WriteReg(R1, 0x00000400)  returns 0x00 (0000ms, 0707ms total)
T1F08 001:426 JLINK_WriteReg(R2, 0x20000164)  returns 0x00 (0000ms, 0707ms total)
T1F08 001:426 JLINK_WriteReg(R3, 0x00000000)  returns 0x00 (0000ms, 0707ms total)
T1F08 001:426 JLINK_WriteReg(R4, 0x00000000)  returns 0x00 (0000ms, 0707ms total)
T1F08 001:426 JLINK_WriteReg(R5, 0x00000000)  returns 0x00 (0000ms, 0707ms total)
T1F08 001:426 JLINK_WriteReg(R6, 0x00000000)  returns 0x00 (0000ms, 0707ms total)
T1F08 001:426 JLINK_WriteReg(R7, 0x00000000)  returns 0x00 (0000ms, 0707ms total)
T1F08 001:426 JLINK_WriteReg(R8, 0x00000000)  returns 0x00 (0000ms, 0707ms total)
T1F08 001:426 JLINK_WriteReg(R9, 0x20000160)  returns 0x00 (0000ms, 0707ms total)
T1F08 001:426 JLINK_WriteReg(R10, 0x00000000)  returns 0x00 (0000ms, 0707ms total)
T1F08 001:426 JLINK_WriteReg(R11, 0x00000000)  returns 0x00 (0000ms, 0707ms total)
T1F08 001:426 JLINK_WriteReg(R12, 0x00000000)  returns 0x00 (0000ms, 0707ms total)
T1F08 001:426 JLINK_WriteReg(R13 (SP), 0x20000800)  returns 0x00 (0000ms, 0707ms total)
T1F08 001:426 JLINK_WriteReg(R14, 0x20000001)  returns 0x00 (0001ms, 0708ms total)
T1F08 001:427 JLINK_WriteReg(R15 (PC), 0x200000F4)  returns 0x00 (0000ms, 0708ms total)
T1F08 001:427 JLINK_WriteReg(XPSR, 0x01000000)  returns 0x00 (0000ms, 0708ms total)
T1F08 001:427 JLINK_WriteReg(MSP, 0x20000800)  returns 0x00 (0000ms, 0708ms total)
T1F08 001:427 JLINK_WriteReg(PSP, 0x20000800)  returns 0x00 (0000ms, 0708ms total)
T1F08 001:427 JLINK_WriteReg(CFBP, 0x00000000)  returns 0x00 (0000ms, 0708ms total)
T1F08 001:427 JLINK_SetBPEx(Addr = 0x20000000, Type = 0xFFFFFFF2)  returns 0x00000006 (0000ms, 0708ms total)
T1F08 001:427 JLINK_Go() (0002ms, 0710ms total)
T1F08 001:429 JLINK_IsHalted()  returns FALSE (0000ms, 0710ms total)
T1F08 001:433 JLINK_IsHalted()  returns FALSE (0000ms, 0710ms total)
T1F08 001:435 JLINK_IsHalted()  returns FALSE (0000ms, 0710ms total)
T1F08 001:444 JLINK_IsHalted()  returns FALSE (0000ms, 0710ms total)
T1F08 001:446 JLINK_IsHalted()  returns FALSE (0000ms, 0710ms total)
T1F08 001:448 JLINK_IsHalted()  returns FALSE (0000ms, 0710ms total)
T1F08 001:450 JLINK_IsHalted()  returns FALSE (0000ms, 0710ms total)
T1F08 001:452 JLINK_IsHalted()  returns FALSE (0000ms, 0710ms total)
T1F08 001:458 JLINK_IsHalted()  returns FALSE (0000ms, 0710ms total)
T1F08 001:460 JLINK_IsHalted() -- CPU_ReadMem(2 bytes @ 0x20000000)  returns TRUE (0005ms, 0715ms total)
T1F08 001:465 JLINK_ReadReg(R15 (PC))  returns 0x20000000 (0000ms, 0710ms total)
T1F08 001:465 JLINK_ClrBPEx(BPHandle = 0x00000006)  returns 0x00 (0000ms, 0710ms total)
T1F08 001:465 JLINK_ReadReg(R0)  returns 0x00000000 (0000ms, 0710ms total)
T1F08 001:466 JLINK_WriteMem(0x20000164, 0x0400 Bytes, ...) - Data: 20 F4 E0 60 08 43 50 60 70 47 01 46 00 20 81 4A ... -- CPU_WriteMem(1024 bytes @ 0x20000164)  returns 0x400 (0007ms, 0717ms total)
T1F08 001:473 JLINK_WriteReg(R0, 0x08000800)  returns 0x00 (0000ms, 0717ms total)
T1F08 001:473 JLINK_WriteReg(R1, 0x00000400)  returns 0x00 (0000ms, 0717ms total)
T1F08 001:473 JLINK_WriteReg(R2, 0x20000164)  returns 0x00 (0000ms, 0717ms total)
T1F08 001:473 JLINK_WriteReg(R3, 0x00000000)  returns 0x00 (0000ms, 0717ms total)
T1F08 001:473 JLINK_WriteReg(R4, 0x00000000)  returns 0x00 (0000ms, 0717ms total)
T1F08 001:473 JLINK_WriteReg(R5, 0x00000000)  returns 0x00 (0001ms, 0718ms total)
T1F08 001:474 JLINK_WriteReg(R6, 0x00000000)  returns 0x00 (0000ms, 0718ms total)
T1F08 001:474 JLINK_WriteReg(R7, 0x00000000)  returns 0x00 (0000ms, 0718ms total)
T1F08 001:474 JLINK_WriteReg(R8, 0x00000000)  returns 0x00 (0000ms, 0718ms total)
T1F08 001:474 JLINK_WriteReg(R9, 0x20000160)  returns 0x00 (0000ms, 0718ms total)
T1F08 001:474 JLINK_WriteReg(R10, 0x00000000)  returns 0x00 (0000ms, 0718ms total)
T1F08 001:474 JLINK_WriteReg(R11, 0x00000000)  returns 0x00 (0000ms, 0718ms total)
T1F08 001:474 JLINK_WriteReg(R12, 0x00000000)  returns 0x00 (0000ms, 0718ms total)
T1F08 001:474 JLINK_WriteReg(R13 (SP), 0x20000800)  returns 0x00 (0000ms, 0718ms total)
T1F08 001:474 JLINK_WriteReg(R14, 0x20000001)  returns 0x00 (0000ms, 0718ms total)
T1F08 001:474 JLINK_WriteReg(R15 (PC), 0x200000F4)  returns 0x00 (0000ms, 0718ms total)
T1F08 001:474 JLINK_WriteReg(XPSR, 0x01000000)  returns 0x00 (0000ms, 0718ms total)
T1F08 001:474 JLINK_WriteReg(MSP, 0x20000800)  returns 0x00 (0000ms, 0718ms total)
T1F08 001:474 JLINK_WriteReg(PSP, 0x20000800)  returns 0x00 (0000ms, 0718ms total)
T1F08 001:474 JLINK_WriteReg(CFBP, 0x00000000)  returns 0x00 (0000ms, 0718ms total)
T1F08 001:474 JLINK_SetBPEx(Addr = 0x20000000, Type = 0xFFFFFFF2)  returns 0x00000007 (0000ms, 0718ms total)
T1F08 001:474 JLINK_Go() (0002ms, 0720ms total)
T1F08 001:476 JLINK_IsHalted()  returns FALSE (0001ms, 0721ms total)
T1F08 001:495 JLINK_IsHalted()  returns FALSE (0000ms, 0720ms total)
T1F08 001:497 JLINK_IsHalted()  returns FALSE (0000ms, 0720ms total)
T1F08 001:504 JLINK_IsHalted()  returns FALSE (0000ms, 0720ms total)
T1F08 001:506 JLINK_IsHalted()  returns FALSE (0000ms, 0720ms total)
T1F08 001:508 JLINK_IsHalted() -- CPU_ReadMem(2 bytes @ 0x20000000)  returns TRUE (0005ms, 0725ms total)
T1F08 001:513 JLINK_ReadReg(R15 (PC))  returns 0x20000000 (0000ms, 0720ms total)
T1F08 001:513 JLINK_ClrBPEx(BPHandle = 0x00000007)  returns 0x00 (0000ms, 0720ms total)
T1F08 001:513 JLINK_ReadReg(R0)  returns 0x00000000 (0000ms, 0720ms total)
T1F08 001:515 JLINK_WriteMem(0x20000164, 0x0400 Bytes, ...) - Data: 8F 49 C9 69 11 F0 02 0F 01 D0 01 20 00 E0 00 20 ... -- CPU_WriteMem(1024 bytes @ 0x20000164)  returns 0x400 (0007ms, 0728ms total)
T1F08 001:522 JLINK_WriteReg(R0, 0x08000C00)  returns 0x00 (0000ms, 0728ms total)
T1F08 001:522 JLINK_WriteReg(R1, 0x00000400)  returns 0x00 (0000ms, 0728ms total)
T1F08 001:522 JLINK_WriteReg(R2, 0x20000164)  returns 0x00 (0000ms, 0728ms total)
T1F08 001:522 JLINK_WriteReg(R3, 0x00000000)  returns 0x00 (0000ms, 0728ms total)
T1F08 001:522 JLINK_WriteReg(R4, 0x00000000)  returns 0x00 (0000ms, 0728ms total)
T1F08 001:522 JLINK_WriteReg(R5, 0x00000000)  returns 0x00 (0000ms, 0728ms total)
T1F08 001:522 JLINK_WriteReg(R6, 0x00000000)  returns 0x00 (0000ms, 0728ms total)
T1F08 001:522 JLINK_WriteReg(R7, 0x00000000)  returns 0x00 (0000ms, 0728ms total)
T1F08 001:522 JLINK_WriteReg(R8, 0x00000000)  returns 0x00 (0000ms, 0728ms total)
T1F08 001:522 JLINK_WriteReg(R9, 0x20000160)  returns 0x00 (0000ms, 0728ms total)
T1F08 001:522 JLINK_WriteReg(R10, 0x00000000)  returns 0x00 (0000ms, 0728ms total)
T1F08 001:522 JLINK_WriteReg(R11, 0x00000000)  returns 0x00 (0000ms, 0728ms total)
T1F08 001:522 JLINK_WriteReg(R12, 0x00000000)  returns 0x00 (0000ms, 0728ms total)
T1F08 001:522 JLINK_WriteReg(R13 (SP), 0x20000800)  returns 0x00 (0000ms, 0728ms total)
T1F08 001:522 JLINK_WriteReg(R14, 0x20000001)  returns 0x00 (0000ms, 0728ms total)
T1F08 001:522 JLINK_WriteReg(R15 (PC), 0x200000F4)  returns 0x00 (0000ms, 0728ms total)
T1F08 001:522 JLINK_WriteReg(XPSR, 0x01000000)  returns 0x00 (0000ms, 0728ms total)
T1F08 001:522 JLINK_WriteReg(MSP, 0x20000800)  returns 0x00 (0000ms, 0728ms total)
T1F08 001:522 JLINK_WriteReg(PSP, 0x20000800)  returns 0x00 (0000ms, 0728ms total)
T1F08 001:522 JLINK_WriteReg(CFBP, 0x00000000)  returns 0x00 (0000ms, 0728ms total)
T1F08 001:522 JLINK_SetBPEx(Addr = 0x20000000, Type = 0xFFFFFFF2)  returns 0x00000008 (0000ms, 0728ms total)
T1F08 001:522 JLINK_Go() (0003ms, 0731ms total)
T1F08 001:525 JLINK_IsHalted()  returns FALSE (0001ms, 0732ms total)
T1F08 001:533 JLINK_IsHalted()  returns FALSE (0000ms, 0731ms total)
T1F08 001:535 JLINK_IsHalted()  returns FALSE (0001ms, 0732ms total)
T1F08 001:538 JLINK_IsHalted()  returns FALSE (0001ms, 0732ms total)
T1F08 001:541 JLINK_IsHalted()  returns FALSE (0001ms, 0732ms total)
T1F08 001:544 JLINK_IsHalted()  returns FALSE (0000ms, 0731ms total)
T1F08 001:551 JLINK_IsHalted()  returns FALSE (0001ms, 0732ms total)
T1F08 001:554 JLINK_IsHalted()  returns FALSE (0001ms, 0732ms total)
T1F08 001:557 JLINK_IsHalted() -- CPU_ReadMem(2 bytes @ 0x20000000)  returns TRUE (0006ms, 0737ms total)
T1F08 001:563 JLINK_ReadReg(R15 (PC))  returns 0x20000000 (0000ms, 0731ms total)
T1F08 001:563 JLINK_ClrBPEx(BPHandle = 0x00000008)  returns 0x00 (0000ms, 0731ms total)
T1F08 001:563 JLINK_ReadReg(R0)  returns 0x00000000 (0000ms, 0731ms total)
T1F08 001:563 JLINK_WriteMem(0x20000164, 0x0400 Bytes, ...) - Data: FE 48 84 42 08 D1 01 21 C0 14 FF F7 CB FC 00 21 ... -- CPU_WriteMem(1024 bytes @ 0x20000164)  returns 0x400 (0007ms, 0738ms total)
T1F08 001:570 JLINK_WriteReg(R0, 0x08001000)  returns 0x00 (0000ms, 0738ms total)
T1F08 001:570 JLINK_WriteReg(R1, 0x00000400)  returns 0x00 (0000ms, 0738ms total)
T1F08 001:570 JLINK_WriteReg(R2, 0x20000164)  returns 0x00 (0000ms, 0738ms total)
T1F08 001:570 JLINK_WriteReg(R3, 0x00000000)  returns 0x00 (0000ms, 0738ms total)
T1F08 001:570 JLINK_WriteReg(R4, 0x00000000)  returns 0x00 (0000ms, 0738ms total)
T1F08 001:570 JLINK_WriteReg(R5, 0x00000000)  returns 0x00 (0000ms, 0738ms total)
T1F08 001:570 JLINK_WriteReg(R6, 0x00000000)  returns 0x00 (0000ms, 0738ms total)
T1F08 001:570 JLINK_WriteReg(R7, 0x00000000)  returns 0x00 (0000ms, 0738ms total)
T1F08 001:570 JLINK_WriteReg(R8, 0x00000000)  returns 0x00 (0000ms, 0738ms total)
T1F08 001:570 JLINK_WriteReg(R9, 0x20000160)  returns 0x00 (0000ms, 0738ms total)
T1F08 001:570 JLINK_WriteReg(R10, 0x00000000)  returns 0x00 (0000ms, 0738ms total)
T1F08 001:571 JLINK_WriteReg(R11, 0x00000000)  returns 0x00 (0000ms, 0738ms total)
T1F08 001:571 JLINK_WriteReg(R12, 0x00000000)  returns 0x00 (0000ms, 0738ms total)
T1F08 001:571 JLINK_WriteReg(R13 (SP), 0x20000800)  returns 0x00 (0000ms, 0738ms total)
T1F08 001:571 JLINK_WriteReg(R14, 0x20000001)  returns 0x00 (0000ms, 0738ms total)
T1F08 001:571 JLINK_WriteReg(R15 (PC), 0x200000F4)  returns 0x00 (0000ms, 0738ms total)
T1F08 001:571 JLINK_WriteReg(XPSR, 0x01000000)  returns 0x00 (0000ms, 0738ms total)
T1F08 001:571 JLINK_WriteReg(MSP, 0x20000800)  returns 0x00 (0000ms, 0738ms total)
T1F08 001:571 JLINK_WriteReg(PSP, 0x20000800)  returns 0x00 (0000ms, 0738ms total)
T1F08 001:571 JLINK_WriteReg(CFBP, 0x00000000)  returns 0x00 (0000ms, 0738ms total)
T1F08 001:571 JLINK_SetBPEx(Addr = 0x20000000, Type = 0xFFFFFFF2)  returns 0x00000009 (0000ms, 0738ms total)
T1F08 001:571 JLINK_Go() (0002ms, 0740ms total)
T1F08 001:573 JLINK_IsHalted()  returns FALSE (0001ms, 0741ms total)
T1F08 001:599 JLINK_IsHalted()  returns FALSE (0000ms, 0740ms total)
T1F08 001:601 JLINK_IsHalted()  returns FALSE (0001ms, 0741ms total)
T1F08 001:604 JLINK_IsHalted() -- CPU_ReadMem(2 bytes @ 0x20000000)  returns TRUE (0006ms, 0746ms total)
T1F08 001:610 JLINK_ReadReg(R15 (PC))  returns 0x20000000 (0000ms, 0740ms total)
T1F08 001:610 JLINK_ClrBPEx(BPHandle = 0x00000009)  returns 0x00 (0000ms, 0740ms total)
T1F08 001:610 JLINK_ReadReg(R0)  returns 0x00000000 (0000ms, 0740ms total)
T1F08 001:610 JLINK_WriteMem(0x20000164, 0x0400 Bytes, ...) - Data: 00 04 00 40 00 08 00 40 00 0C 00 40 00 10 00 40 ... -- CPU_WriteMem(1024 bytes @ 0x20000164)  returns 0x400 (0007ms, 0747ms total)
T1F08 001:617 JLINK_WriteReg(R0, 0x08001400)  returns 0x00 (0000ms, 0747ms total)
T1F08 001:617 JLINK_WriteReg(R1, 0x00000400)  returns 0x00 (0000ms, 0747ms total)
T1F08 001:617 JLINK_WriteReg(R2, 0x20000164)  returns 0x00 (0000ms, 0747ms total)
T1F08 001:617 JLINK_WriteReg(R3, 0x00000000)  returns 0x00 (0000ms, 0747ms total)
T1F08 001:618 JLINK_WriteReg(R4, 0x00000000)  returns 0x00 (0000ms, 0748ms total)
T1F08 001:618 JLINK_WriteReg(R5, 0x00000000)  returns 0x00 (0000ms, 0748ms total)
T1F08 001:618 JLINK_WriteReg(R6, 0x00000000)  returns 0x00 (0000ms, 0748ms total)
T1F08 001:618 JLINK_WriteReg(R7, 0x00000000)  returns 0x00 (0000ms, 0748ms total)
T1F08 001:618 JLINK_WriteReg(R8, 0x00000000)  returns 0x00 (0000ms, 0748ms total)
T1F08 001:618 JLINK_WriteReg(R9, 0x20000160)  returns 0x00 (0000ms, 0748ms total)
T1F08 001:618 JLINK_WriteReg(R10, 0x00000000)  returns 0x00 (0000ms, 0748ms total)
T1F08 001:618 JLINK_WriteReg(R11, 0x00000000)  returns 0x00 (0000ms, 0748ms total)
T1F08 001:618 JLINK_WriteReg(R12, 0x00000000)  returns 0x00 (0000ms, 0748ms total)
T1F08 001:618 JLINK_WriteReg(R13 (SP), 0x20000800)  returns 0x00 (0000ms, 0748ms total)
T1F08 001:618 JLINK_WriteReg(R14, 0x20000001)  returns 0x00 (0000ms, 0748ms total)
T1F08 001:618 JLINK_WriteReg(R15 (PC), 0x200000F4)  returns 0x00 (0000ms, 0748ms total)
T1F08 001:618 JLINK_WriteReg(XPSR, 0x01000000)  returns 0x00 (0000ms, 0748ms total)
T1F08 001:618 JLINK_WriteReg(MSP, 0x20000800)  returns 0x00 (0000ms, 0748ms total)
T1F08 001:618 JLINK_WriteReg(PSP, 0x20000800)  returns 0x00 (0000ms, 0748ms total)
T1F08 001:618 JLINK_WriteReg(CFBP, 0x00000000)  returns 0x00 (0000ms, 0748ms total)
T1F08 001:618 JLINK_SetBPEx(Addr = 0x20000000, Type = 0xFFFFFFF2)  returns 0x0000000A (0000ms, 0748ms total)
T1F08 001:618 JLINK_Go() (0002ms, 0750ms total)
T1F08 001:620 JLINK_IsHalted()  returns FALSE (0001ms, 0751ms total)
T1F08 001:628 JLINK_IsHalted()  returns FALSE (0001ms, 0751ms total)
T1F08 001:631 JLINK_IsHalted()  returns FALSE (0001ms, 0751ms total)
T1F08 001:634 JLINK_IsHalted()  returns FALSE (0001ms, 0751ms total)
T1F08 001:637 JLINK_IsHalted()  returns FALSE (0000ms, 0750ms total)
T1F08 001:643 JLINK_IsHalted()  returns FALSE (0000ms, 0750ms total)
T1F08 001:645 JLINK_IsHalted()  returns FALSE (0000ms, 0750ms total)
T1F08 001:647 JLINK_IsHalted()  returns FALSE (0000ms, 0750ms total)
T1F08 001:649 JLINK_IsHalted()  returns FALSE (0000ms, 0750ms total)
T1F08 001:651 JLINK_IsHalted() -- CPU_ReadMem(2 bytes @ 0x20000000)  returns TRUE (0005ms, 0755ms total)
T1F08 001:656 JLINK_ReadReg(R15 (PC))  returns 0x20000000 (0001ms, 0751ms total)
T1F08 001:657 JLINK_ClrBPEx(BPHandle = 0x0000000A)  returns 0x00 (0000ms, 0751ms total)
T1F08 001:657 JLINK_ReadReg(R0)  returns 0x00000000 (0000ms, 0751ms total)
T1F08 001:658 JLINK_WriteMem(0x20000164, 0x0400 Bytes, ...) - Data: 81 80 00 21 01 80 C1 80 41 80 01 72 70 47 00 21 ... -- CPU_WriteMem(1024 bytes @ 0x20000164)  returns 0x400 (0007ms, 0758ms total)
T1F08 001:665 JLINK_WriteReg(R0, 0x08001800)  returns 0x00 (0000ms, 0758ms total)
T1F08 001:665 JLINK_WriteReg(R1, 0x00000400)  returns 0x00 (0000ms, 0758ms total)
T1F08 001:665 JLINK_WriteReg(R2, 0x20000164)  returns 0x00 (0000ms, 0758ms total)
T1F08 001:665 JLINK_WriteReg(R3, 0x00000000)  returns 0x00 (0000ms, 0758ms total)
T1F08 001:665 JLINK_WriteReg(R4, 0x00000000)  returns 0x00 (0000ms, 0758ms total)
T1F08 001:665 JLINK_WriteReg(R5, 0x00000000)  returns 0x00 (0000ms, 0758ms total)
T1F08 001:665 JLINK_WriteReg(R6, 0x00000000)  returns 0x00 (0000ms, 0758ms total)
T1F08 001:665 JLINK_WriteReg(R7, 0x00000000)  returns 0x00 (0000ms, 0758ms total)
T1F08 001:665 JLINK_WriteReg(R8, 0x00000000)  returns 0x00 (0000ms, 0758ms total)
T1F08 001:665 JLINK_WriteReg(R9, 0x20000160)  returns 0x00 (0000ms, 0758ms total)
T1F08 001:665 JLINK_WriteReg(R10, 0x00000000)  returns 0x00 (0000ms, 0758ms total)
T1F08 001:665 JLINK_WriteReg(R11, 0x00000000)  returns 0x00 (0001ms, 0759ms total)
T1F08 001:666 JLINK_WriteReg(R12, 0x00000000)  returns 0x00 (0000ms, 0759ms total)
T1F08 001:666 JLINK_WriteReg(R13 (SP), 0x20000800)  returns 0x00 (0000ms, 0759ms total)
T1F08 001:666 JLINK_WriteReg(R14, 0x20000001)  returns 0x00 (0000ms, 0759ms total)
T1F08 001:666 JLINK_WriteReg(R15 (PC), 0x200000F4)  returns 0x00 (0000ms, 0759ms total)
T1F08 001:666 JLINK_WriteReg(XPSR, 0x01000000)  returns 0x00 (0000ms, 0759ms total)
T1F08 001:666 JLINK_WriteReg(MSP, 0x20000800)  returns 0x00 (0000ms, 0759ms total)
T1F08 001:666 JLINK_WriteReg(PSP, 0x20000800)  returns 0x00 (0000ms, 0759ms total)
T1F08 001:666 JLINK_WriteReg(CFBP, 0x00000000)  returns 0x00 (0000ms, 0759ms total)
T1F08 001:666 JLINK_SetBPEx(Addr = 0x20000000, Type = 0xFFFFFFF2)  returns 0x0000000B (0000ms, 0759ms total)
T1F08 001:666 JLINK_Go() (0002ms, 0761ms total)
T1F08 001:668 JLINK_IsHalted()  returns FALSE (0001ms, 0762ms total)
T1F08 001:677 JLINK_IsHalted()  returns FALSE (0000ms, 0761ms total)
T1F08 001:679 JLINK_IsHalted()  returns FALSE (0000ms, 0761ms total)
T1F08 001:681 JLINK_IsHalted()  returns FALSE (0000ms, 0761ms total)
T1F08 001:683 JLINK_IsHalted()  returns FALSE (0001ms, 0762ms total)
T1F08 001:695 JLINK_IsHalted()  returns FALSE (0001ms, 0762ms total)
T1F08 001:698 JLINK_IsHalted()  returns FALSE (0001ms, 0762ms total)
T1F08 001:701 JLINK_IsHalted() -- CPU_ReadMem(2 bytes @ 0x20000000)  returns TRUE (0005ms, 0766ms total)
T1F08 001:706 JLINK_ReadReg(R15 (PC))  returns 0x20000000 (0000ms, 0761ms total)
T1F08 001:706 JLINK_ClrBPEx(BPHandle = 0x0000000B)  returns 0x00 (0000ms, 0761ms total)
T1F08 001:706 JLINK_ReadReg(R0)  returns 0x00000000 (0000ms, 0761ms total)
T1F08 001:707 JLINK_WriteMem(0x20000164, 0x0400 Bytes, ...) - Data: 00 21 01 8C 4F F6 7F 73 19 40 4F F6 FF 73 03 EA ... -- CPU_WriteMem(1024 bytes @ 0x20000164)  returns 0x400 (0006ms, 0767ms total)
T1F08 001:713 JLINK_WriteReg(R0, 0x08001C00)  returns 0x00 (0000ms, 0767ms total)
T1F08 001:713 JLINK_WriteReg(R1, 0x00000400)  returns 0x00 (0000ms, 0767ms total)
T1F08 001:713 JLINK_WriteReg(R2, 0x20000164)  returns 0x00 (0000ms, 0767ms total)
T1F08 001:713 JLINK_WriteReg(R3, 0x00000000)  returns 0x00 (0000ms, 0767ms total)
T1F08 001:713 JLINK_WriteReg(R4, 0x00000000)  returns 0x00 (0000ms, 0767ms total)
T1F08 001:713 JLINK_WriteReg(R5, 0x00000000)  returns 0x00 (0001ms, 0768ms total)
T1F08 001:714 JLINK_WriteReg(R6, 0x00000000)  returns 0x00 (0000ms, 0768ms total)
T1F08 001:714 JLINK_WriteReg(R7, 0x00000000)  returns 0x00 (0000ms, 0768ms total)
T1F08 001:714 JLINK_WriteReg(R8, 0x00000000)  returns 0x00 (0000ms, 0768ms total)
T1F08 001:714 JLINK_WriteReg(R9, 0x20000160)  returns 0x00 (0000ms, 0768ms total)
T1F08 001:714 JLINK_WriteReg(R10, 0x00000000)  returns 0x00 (0000ms, 0768ms total)
T1F08 001:714 JLINK_WriteReg(R11, 0x00000000)  returns 0x00 (0000ms, 0768ms total)
T1F08 001:714 JLINK_WriteReg(R12, 0x00000000)  returns 0x00 (0000ms, 0768ms total)
T1F08 001:714 JLINK_WriteReg(R13 (SP), 0x20000800)  returns 0x00 (0000ms, 0768ms total)
T1F08 001:714 JLINK_WriteReg(R14, 0x20000001)  returns 0x00 (0000ms, 0768ms total)
T1F08 001:714 JLINK_WriteReg(R15 (PC), 0x200000F4)  returns 0x00 (0000ms, 0768ms total)
T1F08 001:714 JLINK_WriteReg(XPSR, 0x01000000)  returns 0x00 (0000ms, 0768ms total)
T1F08 001:714 JLINK_WriteReg(MSP, 0x20000800)  returns 0x00 (0000ms, 0768ms total)
T1F08 001:714 JLINK_WriteReg(PSP, 0x20000800)  returns 0x00 (0000ms, 0768ms total)
T1F08 001:714 JLINK_WriteReg(CFBP, 0x00000000)  returns 0x00 (0000ms, 0768ms total)
T1F08 001:714 JLINK_SetBPEx(Addr = 0x20000000, Type = 0xFFFFFFF2)  returns 0x0000000C (0000ms, 0768ms total)
T1F08 001:714 JLINK_Go() (0002ms, 0770ms total)
T1F08 001:716 JLINK_IsHalted()  returns FALSE (0001ms, 0771ms total)
T1F08 001:724 JLINK_IsHalted()  returns FALSE (0000ms, 0770ms total)
T1F08 001:726 JLINK_IsHalted()  returns FALSE (0001ms, 0771ms total)
T1F08 001:729 JLINK_IsHalted()  returns FALSE (0000ms, 0770ms total)
T1F08 001:731 JLINK_IsHalted()  returns FALSE (0000ms, 0770ms total)
T1F08 001:733 JLINK_IsHalted()  returns FALSE (0001ms, 0771ms total)
T1F08 001:736 JLINK_IsHalted()  returns FALSE (0001ms, 0771ms total)
T1F08 001:741 JLINK_IsHalted()  returns FALSE (0001ms, 0771ms total)
T1F08 001:744 JLINK_IsHalted()  returns FALSE (0000ms, 0770ms total)
T1F08 001:746 JLINK_IsHalted()  returns FALSE (0000ms, 0770ms total)
T1F08 001:750 JLINK_IsHalted() -- CPU_ReadMem(2 bytes @ 0x20000000)  returns TRUE (0006ms, 0776ms total)
T1F08 001:756 JLINK_ReadReg(R15 (PC))  returns 0x20000000 (0000ms, 0770ms total)
T1F08 001:756 JLINK_ClrBPEx(BPHandle = 0x0000000C)  returns 0x00 (0000ms, 0770ms total)
T1F08 001:756 JLINK_ReadReg(R0)  returns 0x00000000 (0000ms, 0770ms total)
T1F08 001:757 JLINK_WriteMem(0x20000164, 0x0400 Bytes, ...) - Data: 08 21 15 48 FE F7 A9 FA 10 21 13 48 FE F7 A7 FA ... -- CPU_WriteMem(1024 bytes @ 0x20000164)  returns 0x400 (0006ms, 0776ms total)
T1F08 001:763 JLINK_WriteReg(R0, 0x08002000)  returns 0x00 (0000ms, 0776ms total)
T1F08 001:763 JLINK_WriteReg(R1, 0x00000194)  returns 0x00 (0001ms, 0777ms total)
T1F08 001:764 JLINK_WriteReg(R2, 0x20000164)  returns 0x00 (0000ms, 0777ms total)
T1F08 001:764 JLINK_WriteReg(R3, 0x00000000)  returns 0x00 (0000ms, 0777ms total)
T1F08 001:764 JLINK_WriteReg(R4, 0x00000000)  returns 0x00 (0000ms, 0777ms total)
T1F08 001:764 JLINK_WriteReg(R5, 0x00000000)  returns 0x00 (0000ms, 0777ms total)
T1F08 001:764 JLINK_WriteReg(R6, 0x00000000)  returns 0x00 (0000ms, 0777ms total)
T1F08 001:764 JLINK_WriteReg(R7, 0x00000000)  returns 0x00 (0000ms, 0777ms total)
T1F08 001:764 JLINK_WriteReg(R8, 0x00000000)  returns 0x00 (0000ms, 0777ms total)
T1F08 001:764 JLINK_WriteReg(R9, 0x20000160)  returns 0x00 (0000ms, 0777ms total)
T1F08 001:764 JLINK_WriteReg(R10, 0x00000000)  returns 0x00 (0000ms, 0777ms total)
T1F08 001:764 JLINK_WriteReg(R11, 0x00000000)  returns 0x00 (0000ms, 0777ms total)
T1F08 001:764 JLINK_WriteReg(R12, 0x00000000)  returns 0x00 (0000ms, 0777ms total)
T1F08 001:764 JLINK_WriteReg(R13 (SP), 0x20000800)  returns 0x00 (0000ms, 0777ms total)
T1F08 001:764 JLINK_WriteReg(R14, 0x20000001)  returns 0x00 (0000ms, 0777ms total)
T1F08 001:764 JLINK_WriteReg(R15 (PC), 0x200000F4)  returns 0x00 (0000ms, 0777ms total)
T1F08 001:764 JLINK_WriteReg(XPSR, 0x01000000)  returns 0x00 (0000ms, 0777ms total)
T1F08 001:764 JLINK_WriteReg(MSP, 0x20000800)  returns 0x00 (0000ms, 0777ms total)
T1F08 001:764 JLINK_WriteReg(PSP, 0x20000800)  returns 0x00 (0000ms, 0777ms total)
T1F08 001:764 JLINK_WriteReg(CFBP, 0x00000000)  returns 0x00 (0000ms, 0777ms total)
T1F08 001:764 JLINK_SetBPEx(Addr = 0x20000000, Type = 0xFFFFFFF2)  returns 0x0000000D (0000ms, 0777ms total)
T1F08 001:764 JLINK_Go() (0002ms, 0779ms total)
T1F08 001:766 JLINK_IsHalted()  returns FALSE (0001ms, 0780ms total)
T1F08 001:772 JLINK_IsHalted()  returns FALSE (0000ms, 0779ms total)
T1F08 001:774 JLINK_IsHalted()  returns FALSE (0001ms, 0780ms total)
T1F08 001:777 JLINK_IsHalted()  returns FALSE (0001ms, 0780ms total)
T1F08 001:780 JLINK_IsHalted() -- CPU_ReadMem(2 bytes @ 0x20000000)  returns TRUE (0006ms, 0785ms total)
T1F08 001:786 JLINK_ReadReg(R15 (PC))  returns 0x20000000 (0000ms, 0779ms total)
T1F08 001:786 JLINK_ClrBPEx(BPHandle = 0x0000000D)  returns 0x00 (0000ms, 0779ms total)
T1F08 001:786 JLINK_ReadReg(R0)  returns 0x00000000 (0000ms, 0779ms total)
T1F08 001:786 JLINK_WriteReg(R0, 0x00000002)  returns 0x00 (0000ms, 0779ms total)
T1F08 001:786 JLINK_WriteReg(R1, 0x00000194)  returns 0x00 (0000ms, 0779ms total)
T1F08 001:786 JLINK_WriteReg(R2, 0x20000164)  returns 0x00 (0000ms, 0779ms total)
T1F08 001:786 JLINK_WriteReg(R3, 0x00000000)  returns 0x00 (0000ms, 0779ms total)
T1F08 001:786 JLINK_WriteReg(R4, 0x00000000)  returns 0x00 (0000ms, 0779ms total)
T1F08 001:786 JLINK_WriteReg(R5, 0x00000000)  returns 0x00 (0000ms, 0779ms total)
T1F08 001:786 JLINK_WriteReg(R6, 0x00000000)  returns 0x00 (0000ms, 0779ms total)
T1F08 001:786 JLINK_WriteReg(R7, 0x00000000)  returns 0x00 (0000ms, 0779ms total)
T1F08 001:786 JLINK_WriteReg(R8, 0x00000000)  returns 0x00 (0000ms, 0779ms total)
T1F08 001:786 JLINK_WriteReg(R9, 0x20000160)  returns 0x00 (0000ms, 0779ms total)
T1F08 001:786 JLINK_WriteReg(R10, 0x00000000)  returns 0x00 (0000ms, 0779ms total)
T1F08 001:786 JLINK_WriteReg(R11, 0x00000000)  returns 0x00 (0001ms, 0780ms total)
T1F08 001:787 JLINK_WriteReg(R12, 0x00000000)  returns 0x00 (0000ms, 0780ms total)
T1F08 001:787 JLINK_WriteReg(R13 (SP), 0x20000800)  returns 0x00 (0000ms, 0780ms total)
T1F08 001:787 JLINK_WriteReg(R14, 0x20000001)  returns 0x00 (0000ms, 0780ms total)
T1F08 001:787 JLINK_WriteReg(R15 (PC), 0x2000006A)  returns 0x00 (0000ms, 0780ms total)
T1F08 001:787 JLINK_WriteReg(XPSR, 0x01000000)  returns 0x00 (0000ms, 0780ms total)
T1F08 001:787 JLINK_WriteReg(MSP, 0x20000800)  returns 0x00 (0000ms, 0780ms total)
T1F08 001:787 JLINK_WriteReg(PSP, 0x20000800)  returns 0x00 (0000ms, 0780ms total)
T1F08 001:787 JLINK_WriteReg(CFBP, 0x00000000)  returns 0x00 (0000ms, 0780ms total)
T1F08 001:787 JLINK_SetBPEx(Addr = 0x20000000, Type = 0xFFFFFFF2)  returns 0x0000000E (0000ms, 0780ms total)
T1F08 001:787 JLINK_Go() (0002ms, 0782ms total)
T1F08 001:790 JLINK_IsHalted() -- CPU_ReadMem(2 bytes @ 0x20000000)  returns TRUE (0006ms, 0788ms total)
T1F08 001:796 JLINK_ReadReg(R15 (PC))  returns 0x20000000 (0000ms, 0782ms total)
T1F08 001:796 JLINK_ClrBPEx(BPHandle = 0x0000000E)  returns 0x00 (0000ms, 0782ms total)
T1F08 001:796 JLINK_ReadReg(R0)  returns 0x00000000 (0000ms, 0782ms total)
T1F08 001:855 JLINK_WriteMem(0x20000000, 0x0164 Bytes, ...) - Data: 00 BE 0A E0 0D 78 2D 06 68 40 08 24 40 00 00 D3 ... -- CPU_WriteMem(356 bytes @ 0x20000000)  returns 0x164 (0003ms, 0785ms total)
T1F08 001:858 JLINK_WriteReg(R0, 0x08000000)  returns 0x00 (0000ms, 0785ms total)
T1F08 001:858 JLINK_WriteReg(R1, 0x007A1200)  returns 0x00 (0001ms, 0786ms total)
T1F08 001:859 JLINK_WriteReg(R2, 0x00000003)  returns 0x00 (0000ms, 0786ms total)
T1F08 001:859 JLINK_WriteReg(R3, 0x00000000)  returns 0x00 (0000ms, 0786ms total)
T1F08 001:859 JLINK_WriteReg(R4, 0x00000000)  returns 0x00 (0000ms, 0786ms total)
T1F08 001:859 JLINK_WriteReg(R5, 0x00000000)  returns 0x00 (0000ms, 0786ms total)
T1F08 001:859 JLINK_WriteReg(R6, 0x00000000)  returns 0x00 (0000ms, 0786ms total)
T1F08 001:859 JLINK_WriteReg(R7, 0x00000000)  returns 0x00 (0000ms, 0786ms total)
T1F08 001:859 JLINK_WriteReg(R8, 0x00000000)  returns 0x00 (0000ms, 0786ms total)
T1F08 001:859 JLINK_WriteReg(R9, 0x20000160)  returns 0x00 (0000ms, 0786ms total)
T1F08 001:859 JLINK_WriteReg(R10, 0x00000000)  returns 0x00 (0000ms, 0786ms total)
T1F08 001:859 JLINK_WriteReg(R11, 0x00000000)  returns 0x00 (0000ms, 0786ms total)
T1F08 001:859 JLINK_WriteReg(R12, 0x00000000)  returns 0x00 (0000ms, 0786ms total)
T1F08 001:859 JLINK_WriteReg(R13 (SP), 0x20000800)  returns 0x00 (0000ms, 0786ms total)
T1F08 001:859 JLINK_WriteReg(R14, 0x20000001)  returns 0x00 (0000ms, 0786ms total)
T1F08 001:859 JLINK_WriteReg(R15 (PC), 0x20000038)  returns 0x00 (0000ms, 0786ms total)
T1F08 001:859 JLINK_WriteReg(XPSR, 0x01000000)  returns 0x00 (0000ms, 0786ms total)
T1F08 001:859 JLINK_WriteReg(MSP, 0x20000800)  returns 0x00 (0000ms, 0786ms total)
T1F08 001:859 JLINK_WriteReg(PSP, 0x20000800)  returns 0x00 (0000ms, 0786ms total)
T1F08 001:859 JLINK_WriteReg(CFBP, 0x00000000)  returns 0x00 (0000ms, 0786ms total)
T1F08 001:859 JLINK_SetBPEx(Addr = 0x20000000, Type = 0xFFFFFFF2) -- CPU_ReadMem(2 bytes @ 0x20000000)  returns 0x0000000F (0001ms, 0787ms total)
T1F08 001:860 JLINK_Go() -- CPU_WriteMem(2 bytes @ 0x20000000) (0003ms, 0790ms total)
T1F08 001:863 JLINK_IsHalted() -- CPU_ReadMem(2 bytes @ 0x20000000)  returns TRUE (0006ms, 0796ms total)
T1F08 001:869 JLINK_ReadReg(R15 (PC))  returns 0x20000000 (0001ms, 0791ms total)
T1F08 001:870 JLINK_ClrBPEx(BPHandle = 0x0000000F)  returns 0x00 (0000ms, 0791ms total)
T1F08 001:870 JLINK_ReadReg(R0)  returns 0x00000000 (0000ms, 0791ms total)
T1F08 001:870 JLINK_WriteReg(R0, 0xFFFFFFFF)  returns 0x00 (0000ms, 0791ms total)
T1F08 001:870 JLINK_WriteReg(R1, 0x08000000)  returns 0x00 (0000ms, 0791ms total)
T1F08 001:870 JLINK_WriteReg(R2, 0x00002194)  returns 0x00 (0000ms, 0791ms total)
T1F08 001:870 JLINK_WriteReg(R3, 0x04C11DB7)  returns 0x00 (0000ms, 0791ms total)
T1F08 001:870 JLINK_WriteReg(R4, 0x00000000)  returns 0x00 (0000ms, 0791ms total)
T1F08 001:870 JLINK_WriteReg(R5, 0x00000000)  returns 0x00 (0000ms, 0791ms total)
T1F08 001:870 JLINK_WriteReg(R6, 0x00000000)  returns 0x00 (0000ms, 0791ms total)
T1F08 001:870 JLINK_WriteReg(R7, 0x00000000)  returns 0x00 (0000ms, 0791ms total)
T1F08 001:870 JLINK_WriteReg(R8, 0x00000000)  returns 0x00 (0000ms, 0791ms total)
T1F08 001:870 JLINK_WriteReg(R9, 0x20000160)  returns 0x00 (0000ms, 0791ms total)
T1F08 001:870 JLINK_WriteReg(R10, 0x00000000)  returns 0x00 (0000ms, 0791ms total)
T1F08 001:870 JLINK_WriteReg(R11, 0x00000000)  returns 0x00 (0000ms, 0791ms total)
T1F08 001:870 JLINK_WriteReg(R12, 0x00000000)  returns 0x00 (0000ms, 0791ms total)
T1F08 001:870 JLINK_WriteReg(R13 (SP), 0x20000800)  returns 0x00 (0000ms, 0791ms total)
T1F08 001:870 JLINK_WriteReg(R14, 0x20000001)  returns 0x00 (0000ms, 0791ms total)
T1F08 001:870 JLINK_WriteReg(R15 (PC), 0x20000002)  returns 0x00 (0000ms, 0791ms total)
T1F08 001:870 JLINK_WriteReg(XPSR, 0x01000000)  returns 0x00 (0000ms, 0791ms total)
T1F08 001:870 JLINK_WriteReg(MSP, 0x20000800)  returns 0x00 (0000ms, 0791ms total)
T1F08 001:870 JLINK_WriteReg(PSP, 0x20000800)  returns 0x00 (0000ms, 0791ms total)
T1F08 001:870 JLINK_WriteReg(CFBP, 0x00000000)  returns 0x00 (0000ms, 0791ms total)
T1F08 001:870 JLINK_SetBPEx(Addr = 0x20000000, Type = 0xFFFFFFF2)  returns 0x00000010 (0000ms, 0791ms total)
T1F08 001:870 JLINK_Go() (0003ms, 0794ms total)
T1F08 001:873 JLINK_IsHalted()  returns FALSE (0001ms, 0795ms total)
T1F08 001:941 JLINK_IsHalted()  returns FALSE (0001ms, 0795ms total)
T1F08 001:944 JLINK_IsHalted()  returns FALSE (0001ms, 0795ms total)
T1F08 001:947 JLINK_IsHalted()  returns FALSE (0001ms, 0795ms total)
T1F08 001:950 JLINK_IsHalted()  returns FALSE (0000ms, 0794ms total)
T1F08 001:956 JLINK_IsHalted()  returns FALSE (0000ms, 0794ms total)
T1F08 001:958 JLINK_IsHalted()  returns FALSE (0001ms, 0795ms total)
T1F08 001:961 JLINK_IsHalted()  returns FALSE (0001ms, 0795ms total)
T1F08 001:964 JLINK_IsHalted()  returns FALSE (0001ms, 0795ms total)
T1F08 001:967 JLINK_IsHalted() -- CPU_ReadMem(2 bytes @ 0x20000000)  returns TRUE (0006ms, 0800ms total)
T1F08 001:973 JLINK_ReadReg(R15 (PC))  returns 0x20000000 (0000ms, 0794ms total)
T1F08 001:973 JLINK_ClrBPEx(BPHandle = 0x00000010)  returns 0x00 (0000ms, 0794ms total)
T1F08 001:973 JLINK_ReadReg(R0)  returns 0x7984C286 (0000ms, 0794ms total)
T1F08 001:974 JLINK_WriteReg(R0, 0x00000003)  returns 0x00 (0000ms, 0794ms total)
T1F08 001:974 JLINK_WriteReg(R1, 0x08000000)  returns 0x00 (0000ms, 0794ms total)
T1F08 001:974 JLINK_WriteReg(R2, 0x00002194)  returns 0x00 (0000ms, 0794ms total)
T1F08 001:974 JLINK_WriteReg(R3, 0x04C11DB7)  returns 0x00 (0000ms, 0794ms total)
T1F08 001:974 JLINK_WriteReg(R4, 0x00000000)  returns 0x00 (0000ms, 0794ms total)
T1F08 001:974 JLINK_WriteReg(R5, 0x00000000)  returns 0x00 (0000ms, 0794ms total)
T1F08 001:974 JLINK_WriteReg(R6, 0x00000000)  returns 0x00 (0000ms, 0794ms total)
T1F08 001:974 JLINK_WriteReg(R7, 0x00000000)  returns 0x00 (0000ms, 0794ms total)
T1F08 001:974 JLINK_WriteReg(R8, 0x00000000)  returns 0x00 (0000ms, 0794ms total)
T1F08 001:974 JLINK_WriteReg(R9, 0x20000160)  returns 0x00 (0000ms, 0794ms total)
T1F08 001:974 JLINK_WriteReg(R10, 0x00000000)  returns 0x00 (0000ms, 0794ms total)
T1F08 001:974 JLINK_WriteReg(R11, 0x00000000)  returns 0x00 (0000ms, 0794ms total)
T1F08 001:974 JLINK_WriteReg(R12, 0x00000000)  returns 0x00 (0000ms, 0794ms total)
T1F08 001:974 JLINK_WriteReg(R13 (SP), 0x20000800)  returns 0x00 (0000ms, 0794ms total)
T1F08 001:974 JLINK_WriteReg(R14, 0x20000001)  returns 0x00 (0000ms, 0794ms total)
